
T1128 000:079 SEGGER J-Link V6.14c Log File (0001ms, 0038ms total)
T1128 000:079 DLL Compiled: Mar 31 2017 17:45:52 (0001ms, 0038ms total)
T1128 000:079 Logging started @ 2017-06-14 23:32 (0001ms, 0038ms total)
T1128 000:080 JLINK_SetWarnOutHandler(...) (0000ms, 0038ms total)
T1128 000:080 JLINK_OpenEx(...)
Firmware: J-Link V9 compiled Mar 10 2017 19:41:40
Hardware: V9.20
Feature(s): RDI, GDB, FlashDL, FlashBP, JFlash, RDDIWEBSRV Webserver running on local port 19080 (0028ms, 0066ms total)
T1128 000:080   returns O.K. (0028ms, 0066ms total)
T1128 000:108 JLINK_SetErrorOutHandler(...) (0000ms, 0066ms total)
T1128 000:108 JLINK_ExecCommand("ProjectFile = "H:\WorkSpace_2017\Location\v1.0.0\bsp\stm32f40x\JLinkSettings.ini"", ...). C:\Program Files (x86)\SEGGER\JLink_V614c\JLinkDevices.xml evaluated successfully.  returns 0x00 (0133ms, 0199ms total)
T1128 000:241 JLINK_ExecCommand("Device = STM32F407VG", ...). Device "STM32F407VG" selected.  returns 0x00 (0003ms, 0202ms total)
T1128 000:244 JLINK_ExecCommand("DisableConnectionTimeout", ...).   returns 0x01 (0000ms, 0202ms total)
T1128 000:244 JLINK_GetHardwareVersion()  returns 0x16760 (0000ms, 0202ms total)
T1128 000:244 JLINK_GetDLLVersion()  returns 61403 (0000ms, 0202ms total)
T1128 000:244 JLINK_GetFirmwareString(...) (0000ms, 0202ms total)
T1128 000:244 JLINK_GetDLLVersion()  returns 61403 (0000ms, 0202ms total)
T1128 000:244 JLINK_GetCompileDateTime() (0000ms, 0202ms total)
T1128 000:244 JLINK_GetFirmwareString(...) (0000ms, 0202ms total)
T1128 000:244 JLINK_GetHardwareVersion()  returns 0x16760 (0000ms, 0202ms total)
T1128 000:245 JLINK_TIF_Select(JLINKARM_TIF_JTAG)  returns 0x00 (0005ms, 0207ms total)
T1128 000:250 JLINK_SetSpeed(50000) (0001ms, 0208ms total)
T1128 000:251 JLINK_GetIdData(...) >0x2F8 JTAG>TotalIRLen = 9, IRPrint = 0x0011 >0x30 JTAG> >0x410 JTAG> >0x40 JTAG> >0x40 JTAG> >0x40 JTAG> >0x30 JTAG> >0x40 JTAG> >0x40 JTAG> >0x40 JTAG> >0x40 JTAG> >0x40 JTAG> >0x40 JTAG> >0x40 JTAG> >0x40 JTAG> >0x40 JTAG> >0x40 JTAG> >0x40 JTAG> >0x40 JTAG> >0x40 JTAG> >0x40 JTAG> >0x40 JTAG> >0x40 JTAG> >0x40 JTAG> >0x40 JTAG> >0x40 JTAG> >0x40 JTAG> >0x2F8 JTAG>TotalIRLen = 9, IRPrint = 0x0011 >0x30 JTAG> >0x410 JTAG> >0x70 JTAG> >0x50 JTAG> >0x40 JTAG>
 >0x50 JTAG>AP-IDR: 0x24770011, Type: AHB-APAHB-AP ROM: 0xE00FF000 (Base addr. of first ROM table) >0x80 JTAG> >0x40 JTAG> >0x30 JTAG> >0x40 JTAG> >0x40 JTAG> >0x30 JTAG> >0x40 JTAG> >0x50 JTAG>Found Cortex-M4 r0p1, Little endian. -- CPU_ReadMem(4 bytes @ 0xE000EDF0) -- CPU_WriteMem(4 bytes @ 0xE000EDF0) -- CPU_ReadMem(4 bytes @ 0xE0002000)FPUnit: 6 code (BP) slots and 2 literal slots -- CPU_ReadMem(4 bytes @ 0xE000EDFC) -- CPU_WriteMem(4 bytes @ 0xE000EDFC) -- CPU_ReadMem(4 bytes @ 0xE0001000)
 -- CPU_WriteMem(4 bytes @ 0xE0001000) -- CPU_ReadMem(4 bytes @ 0xE000ED88) -- CPU_WriteMem(4 bytes @ 0xE000ED88) -- CPU_ReadMem(4 bytes @ 0xE000ED88) -- CPU_WriteMem(4 bytes @ 0xE000ED88)CoreSight components:ROMTbl[0] @ E00FF000 -- CPU_ReadMem(16 bytes @ 0xE00FF000) -- CPU_ReadMem(16 bytes @ 0xE000EFF0) -- CPU_ReadMem(16 bytes @ 0xE000EFE0)ROMTbl[0][0]: E000E000, CID: B105E00D, PID: 000BB00C SCS -- CPU_ReadMem(16 bytes @ 0xE0001FF0) -- CPU_ReadMem(16 bytes @ 0xE0001FE0)
ROMTbl[0][1]: E0001000, CID: B105E00D, PID: 003BB002 DWT -- CPU_ReadMem(16 bytes @ 0xE0002FF0) -- CPU_ReadMem(16 bytes @ 0xE0002FE0)ROMTbl[0][2]: E0002000, CID: B105E00D, PID: 002BB003 FPB -- CPU_ReadMem(16 bytes @ 0xE0000FF0) -- CPU_ReadMem(16 bytes @ 0xE0000FE0)ROMTbl[0][3]: E0000000, CID: B105E00D, PID: 003BB001 ITM -- CPU_ReadMem(16 bytes @ 0xE00FF010) -- CPU_ReadMem(16 bytes @ 0xE0040FF0) -- CPU_ReadMem(16 bytes @ 0xE0040FE0)ROMTbl[0][4]: E0040000, CID: B105900D, PID: 000BB9A1 TPIU
 -- CPU_ReadMem(16 bytes @ 0xE0041FF0) -- CPU_ReadMem(16 bytes @ 0xE0041FE0)ROMTbl[0][5]: E0041000, CID: B105900D, PID: 000BB925 ETM ScanLen=9 NumDevices=2 aId[0]=0x4BA00477 aIrRead[0]=0 aScanLen[0]=0 aScanRead[0]=0 (0074ms, 0282ms total)
T1128 000:325 JLINK_JTAG_GetDeviceID(DeviceIndex = 0)  returns 0x4BA00477 (0000ms, 0282ms total)
T1128 000:325 JLINK_JTAG_GetDeviceInfo(DeviceIndex = 0)  returns 0x00 (0000ms, 0282ms total)
T1128 000:325 JLINK_JTAG_GetDeviceID(DeviceIndex = 1)  returns 0x6413041 (0000ms, 0282ms total)
T1128 000:325 JLINK_JTAG_GetDeviceInfo(DeviceIndex = 1)  returns 0x00 (0000ms, 0282ms total)
T1128 000:325 JLINK_GetDLLVersion()  returns 61403 (0000ms, 0282ms total)
T1128 000:325 JLINK_CORE_GetFound()  returns 0xE0000FF (0000ms, 0282ms total)
T1128 000:325 JLINK_GetDebugInfo(0x100 = JLINKARM_ROM_TABLE_ADDR_INDEX) -- Value=0xE00FF000  returns 0x00 (0000ms, 0282ms total)
T1128 000:325 JLINK_GetDebugInfo(0x100 = JLINKARM_ROM_TABLE_ADDR_INDEX) -- Value=0xE00FF000  returns 0x00 (0000ms, 0282ms total)
T1128 000:325 JLINK_GetDebugInfo(0x101 = JLINKARM_DEBUG_INFO_ETM_ADDR_INDEX) -- Value=0xE0041000  returns 0x00 (0000ms, 0282ms total)
T1128 000:325 JLINK_GetDebugInfo(0x102 = JLINKARM_DEBUG_INFO_MTB_ADDR_INDEX) -- Value=0x00000000  returns 0x00 (0000ms, 0282ms total)
T1128 000:325 JLINK_GetDebugInfo(0x103 = JLINKARM_DEBUG_INFO_TPIU_ADDR_INDEX) -- Value=0xE0040000  returns 0x00 (0001ms, 0283ms total)
T1128 000:326 JLINK_GetDebugInfo(0x104 = JLINKARM_DEBUG_INFO_ITM_ADDR_INDEX) -- Value=0xE0000000  returns 0x00 (0000ms, 0283ms total)
T1128 000:326 JLINK_GetDebugInfo(0x105 = JLINKARM_DEBUG_INFO_DWT_ADDR_INDEX) -- Value=0xE0001000  returns 0x00 (0000ms, 0283ms total)
T1128 000:326 JLINK_GetDebugInfo(0x106 = JLINKARM_DEBUG_INFO_FPB_ADDR_INDEX) -- Value=0xE0002000  returns 0x00 (0000ms, 0283ms total)
T1128 000:326 JLINK_GetDebugInfo(0x107 = JLINKARM_DEBUG_INFO_NVIC_ADDR_INDEX) -- Value=0xE000E000  returns 0x00 (0000ms, 0283ms total)
T1128 000:326 JLINK_GetDebugInfo(0x10C = JLINKARM_DEBUG_INFO_DBG_ADDR_INDEX) -- Value=0xE000EDF0  returns 0x00 (0000ms, 0283ms total)
T1128 000:326 JLINK_ReadMemU32(0xE000EF40, 0x0001 Items, ...) -- CPU is running -- CPU_ReadMem(4 bytes @ 0xE000EF40) - Data: 21 00 11 10  returns 0x01 (0001ms, 0284ms total)
T1128 000:327 JLINK_ReadMemU32(0xE000EF44, 0x0001 Items, ...) -- CPU is running -- CPU_ReadMem(4 bytes @ 0xE000EF44) - Data: 11 00 00 11  returns 0x01 (0001ms, 0285ms total)
T1128 000:328 JLINK_ReadMemU32(0xE000ED00, 0x0001 Items, ...) -- CPU is running -- CPU_ReadMem(4 bytes @ 0xE000ED00) - Data: 41 C2 0F 41  returns 0x01 (0001ms, 0286ms total)
T1128 000:329 JLINK_SetResetType(JLINKARM_CM3_RESET_TYPE_CORE_AND_PERIPHERALS)  returns JLINKARM_CM3_RESET_TYPE_NORMAL (0000ms, 0286ms total)
T1128 000:329 JLINK_Reset() -- CPU is running -- CPU_WriteMem(4 bytes @ 0xE000EDF0) -- CPU is running -- CPU_WriteMem(4 bytes @ 0xE000EDFC) -- CPU is running -- CPU_WriteMem(4 bytes @ 0xE000ED0C) -- CPU is running -- CPU_ReadMem(4 bytes @ 0xE000EDF0) -- CPU is running -- CPU_ReadMem(4 bytes @ 0xE000EDF0) -- CPU is running -- CPU_WriteMem(4 bytes @ 0xE000EDF0) -- CPU is running -- CPU_WriteMem(4 bytes @ 0xE000EDFC) -- CPU is running -- CPU_ReadMem(4 bytes @ 0xE000EDF0) >0x80 JTAG> >0x40 JTAG> >0x30 JTAG>
 >0x40 JTAG> >0x50 JTAG> >0x40 JTAG> -- CPU_WriteMem(4 bytes @ 0xE000EDFC) -- CPU_WriteMem(4 bytes @ 0xE0001028) -- CPU_WriteMem(4 bytes @ 0xE0001038) -- CPU_WriteMem(4 bytes @ 0xE0001048) -- CPU_WriteMem(4 bytes @ 0xE0001058) -- CPU_WriteMem(4 bytes @ 0xE0002000) -- CPU_ReadMem(4 bytes @ 0xE000EDFC) -- CPU_ReadMem(4 bytes @ 0xE0001000) (0038ms, 0324ms total)
T1128 000:367 JLINK_ReadReg(R15 (PC))  returns 0x080054AC (0000ms, 0324ms total)
T1128 000:367 JLINK_ReadReg(XPSR)  returns 0x01000000 (0000ms, 0324ms total)
T1128 000:367 JLINK_Halt()  returns 0x00 (0000ms, 0324ms total)
T1128 000:367 JLINK_IsHalted()  returns TRUE (0000ms, 0324ms total)
T1128 000:367 JLINK_ReadMemU32(0xE000EDF0, 0x0001 Items, ...) -- CPU_ReadMem(4 bytes @ 0xE000EDF0) - Data: 03 00 03 00  returns 0x01 (0001ms, 0325ms total)
T1128 000:368 JLINK_WriteU32(0xE000EDF0, 0xA05F0003) -- CPU_WriteMem(4 bytes @ 0xE000EDF0)  returns 0x00 (0001ms, 0326ms total)
T1128 000:369 JLINK_WriteU32(0xE000EDFC, 0x01000000) -- CPU_WriteMem(4 bytes @ 0xE000EDFC)  returns 0x00 (0001ms, 0327ms total)
T1128 000:371 JLINK_GetHWStatus(...)  returns 0x00 (0001ms, 0328ms total)
T1128 000:372 JLINK_GetNumBPUnits(Type = 0xFFFFFF00)  returns 0x06 (0000ms, 0328ms total)
T1128 000:372 JLINK_GetNumBPUnits(Type = 0xF0)  returns 0x2000 (0000ms, 0328ms total)
T1128 000:372 JLINK_GetNumWPUnits()  returns 0x04 (0000ms, 0328ms total)
T1128 000:373 JLINK_GetSpeed()  returns 0x3A98 (0000ms, 0328ms total)
T1128 000:373 JLINK_ReadMemU32(0xE000E004, 0x0001 Items, ...) -- CPU_ReadMem(4 bytes @ 0xE000E004) - Data: 02 00 00 00  returns 0x01 (0001ms, 0329ms total)
T1128 000:374 JLINK_ReadMemU32(0xE000E004, 0x0001 Items, ...) -- CPU_ReadMem(4 bytes @ 0xE000E004) - Data: 02 00 00 00  returns 0x01 (0001ms, 0330ms total)
T1128 000:375 JLINK_WriteMem(0xE0001000, 0x001C Bytes, ...) - Data: 01 00 00 00 00 00 00 00 00 00 00 00 00 00 00 00 ... -- CPU_WriteMem(28 bytes @ 0xE0001000)  returns 0x1C (0002ms, 0332ms total)
T1128 000:377 JLINK_ReadMem (0xE0001000, 0x001C Bytes, ...) -- CPU_ReadMem(28 bytes @ 0xE0001000) - Data: 01 00 00 40 00 00 00 00 00 00 00 00 00 00 00 00 ...  returns 0x00 (0001ms, 0333ms total)
T1128 000:378 JLINK_ReadReg(R15 (PC))  returns 0x080054AC (0000ms, 0333ms total)
T1128 000:378 JLINK_ReadReg(XPSR)  returns 0x01000000 (0000ms, 0333ms total)
T1128 000:561 JLINK_SetResetType(JLINKARM_CM3_RESET_TYPE_CORE_AND_PERIPHERALS)  returns JLINKARM_CM3_RESET_TYPE_CORE_AND_PERIPHERALS (0000ms, 0333ms total)
T1128 000:561 JLINK_Reset() -- CPU_WriteMem(4 bytes @ 0xE000EDF0) -- CPU_WriteMem(4 bytes @ 0xE000EDFC) -- CPU_WriteMem(4 bytes @ 0xE000ED0C) -- CPU_ReadMem(4 bytes @ 0xE000EDF0) -- CPU_ReadMem(4 bytes @ 0xE000EDF0) -- CPU_WriteMem(4 bytes @ 0xE000EDF0) -- CPU_WriteMem(4 bytes @ 0xE000EDFC) -- CPU is running -- CPU_ReadMem(4 bytes @ 0xE000EDF0) >0x80 JTAG> >0x40 JTAG> >0x30 JTAG> >0x40 JTAG> >0x50 JTAG> >0x40 JTAG> -- CPU_WriteMem(4 bytes @ 0xE000EDFC) -- CPU_WriteMem(4 bytes @ 0xE0001028)
 -- CPU_WriteMem(4 bytes @ 0xE0001038) -- CPU_WriteMem(4 bytes @ 0xE0001048) -- CPU_WriteMem(4 bytes @ 0xE0001058) -- CPU_WriteMem(4 bytes @ 0xE0002000) -- CPU_ReadMem(4 bytes @ 0xE000EDFC) -- CPU_ReadMem(4 bytes @ 0xE0001000) (0039ms, 0372ms total)
T1128 000:600 JLINK_ReadReg(R15 (PC))  returns 0x080054AC (0000ms, 0372ms total)
T1128 000:600 JLINK_ReadReg(XPSR)  returns 0x01000000 (0000ms, 0372ms total)
T1128 000:600 JLINK_ReadMem (0x080053AC, 0x003C Bytes, ...) -- CPU_ReadMem(128 bytes @ 0x08005380) -- Updating C cache (128 bytes @ 0x08005380) -- Read from C cache (60 bytes @ 0x080053AC) - Data: 06 F6 B8 F1 01 0F 02 D1 A8 89 06 40 07 E0 B8 F1 ...  returns 0x00 (0002ms, 0374ms total)
T1128 000:602 JLINK_ReadMem (0x080053E8, 0x0018 Bytes, ...) -- Read from C cache (24 bytes @ 0x080053E8) - Data: F0 87 2D E9 F0 41 04 46 0D 46 00 26 00 27 27 48 ...  returns 0x00 (0000ms, 0374ms total)
T1128 000:602 JLINK_ReadMem (0x08005400, 0x0024 Bytes, ...) -- CPU_ReadMem(64 bytes @ 0x08005400) -- Updating C cache (64 bytes @ 0x08005400) -- Read from C cache (36 bytes @ 0x08005400) - Data: 0B D0 26 48 84 42 08 D0 26 48 84 42 05 D0 26 48 ...  returns 0x00 (0001ms, 0375ms total)
T1128 000:603 JLINK_ReadMem (0x08005424, 0x003C Bytes, ...) -- CPU_ReadMem(64 bytes @ 0x08005440) -- Updating C cache (64 bytes @ 0x08005440) -- Read from C cache (60 bytes @ 0x08005424) - Data: FA F7 94 FF 40 F2 26 60 85 42 0B D0 40 F2 25 50 ...  returns 0x00 (0001ms, 0376ms total)
T1128 000:604 JLINK_ReadMem (0x08005460, 0x003C Bytes, ...) -- CPU_ReadMem(64 bytes @ 0x08005480) -- Updating C cache (64 bytes @ 0x08005480) -- Read from C cache (60 bytes @ 0x08005460) - Data: 84 42 08 D0 0C 48 84 42 05 D0 0C 48 84 42 02 D0 ...  returns 0x00 (0001ms, 0377ms total)
T1128 000:605 JLINK_ReadMem (0x080054A8, 0x003C Bytes, ...) -- CPU_ReadMem(64 bytes @ 0x080054C0) -- Updating C cache (64 bytes @ 0x080054C0) -- Read from C cache (60 bytes @ 0x080054A8) - Data: 00 50 00 40 09 48 80 47 09 48 00 47 FE E7 FE E7 ...  returns 0x00 (0001ms, 0378ms total)
T0294 005:016 JLINK_SetBPEx(Addr = 0x080003AC, Type = 0xFFFFFFF2)  returns 0x00000001 (0000ms, 0378ms total)
T0294 005:016 JLINK_SetBPEx(Addr = 0x0800028E, Type = 0xFFFFFFF2)  returns 0x00000002 (0000ms, 0378ms total)
T0294 005:016 JLINK_SetBPEx(Addr = 0x0800FAB8, Type = 0xFFFFFFF2)  returns 0x00000003 (0000ms, 0378ms total)
T0294 005:016 JLINK_SetBPEx(Addr = 0x08010D30, Type = 0xFFFFFFF2)  returns 0x00000004 (0000ms, 0378ms total)
T0294 005:016 JLINK_SetBPEx(Addr = 0x08010E60, Type = 0xFFFFFFF2)  returns 0x00000005 (0000ms, 0378ms total)
T0294 005:016 JLINK_SetBPEx(Addr = 0x08010BA0, Type = 0xFFFFFFF2)  returns 0x00000006 (0000ms, 0378ms total)
T0294 005:016 JLINK_Go() -- CPU_ReadMem(4 bytes @ 0xE0001000) -- CPU_WriteMem(4 bytes @ 0xE0002008) -- CPU_WriteMem(4 bytes @ 0xE000200C) -- CPU_WriteMem(4 bytes @ 0xE0002010) -- CPU_WriteMem(4 bytes @ 0xE0002014) -- CPU_WriteMem(4 bytes @ 0xE0002018) -- CPU_WriteMem(4 bytes @ 0xE000201C) -- CPU_WriteMem(4 bytes @ 0xE0001004) (0005ms, 0383ms total)
T0294 005:122 JLINK_IsHalted()  returns TRUE (0001ms, 0384ms total)
T0294 005:123 JLINK_Halt()  returns 0x00 (0000ms, 0383ms total)
T0294 005:123 JLINK_IsHalted()  returns TRUE (0001ms, 0384ms total)
T0294 005:124 JLINK_IsHalted()  returns TRUE (0000ms, 0383ms total)
T0294 005:124 JLINK_IsHalted()  returns TRUE (0000ms, 0383ms total)
T0294 005:124 JLINK_ReadReg(R15 (PC))  returns 0x080003AC (0000ms, 0383ms total)
T0294 005:124 JLINK_ReadReg(XPSR)  returns 0x61000000 (0000ms, 0383ms total)
T0294 005:124 JLINK_ClrBPEx(BPHandle = 0x00000001)  returns 0x00 (0000ms, 0383ms total)
T0294 005:124 JLINK_ClrBPEx(BPHandle = 0x00000002)  returns 0x00 (0000ms, 0383ms total)
T0294 005:124 JLINK_ClrBPEx(BPHandle = 0x00000003)  returns 0x00 (0000ms, 0383ms total)
T0294 005:124 JLINK_ClrBPEx(BPHandle = 0x00000004)  returns 0x00 (0000ms, 0383ms total)
T0294 005:124 JLINK_ClrBPEx(BPHandle = 0x00000005)  returns 0x00 (0000ms, 0383ms total)
T0294 005:124 JLINK_ClrBPEx(BPHandle = 0x00000006)  returns 0x00 (0000ms, 0383ms total)
T0294 005:124 JLINK_ReadMemU32(0xE000ED30, 0x0001 Items, ...) -- CPU_ReadMem(4 bytes @ 0xE000ED30) - Data: 02 00 00 00  returns 0x01 (0000ms, 0383ms total)
T0294 005:124 JLINK_ReadMemU32(0xE0001028, 0x0001 Items, ...) -- CPU_ReadMem(4 bytes @ 0xE0001028) - Data: 00 00 00 00  returns 0x01 (0001ms, 0384ms total)
T0294 005:125 JLINK_ReadMemU32(0xE0001038, 0x0001 Items, ...) -- CPU_ReadMem(4 bytes @ 0xE0001038) - Data: 00 02 00 00  returns 0x01 (0002ms, 0386ms total)
T0294 005:127 JLINK_ReadMemU32(0xE0001048, 0x0001 Items, ...) -- CPU_ReadMem(4 bytes @ 0xE0001048) - Data: 00 00 00 00  returns 0x01 (0000ms, 0386ms total)
T0294 005:127 JLINK_ReadMemU32(0xE0001058, 0x0001 Items, ...) -- CPU_ReadMem(4 bytes @ 0xE0001058) - Data: 00 00 00 00  returns 0x01 (0001ms, 0387ms total)
T0294 005:129 JLINK_ReadReg(R0)  returns 0x200018A0 (0000ms, 0387ms total)
T0294 005:129 JLINK_ReadReg(R1)  returns 0x200038A0 (0000ms, 0387ms total)
T0294 005:129 JLINK_ReadReg(R2)  returns 0x200038A0 (0000ms, 0387ms total)
T0294 005:129 JLINK_ReadReg(R3)  returns 0x200038A0 (0000ms, 0387ms total)
T0294 005:129 JLINK_ReadReg(R4)  returns 0x00000000 (0000ms, 0387ms total)
T0294 005:129 JLINK_ReadReg(R5)  returns 0x20001840 (0000ms, 0387ms total)
T0294 005:129 JLINK_ReadReg(R6)  returns 0x00000000 (0000ms, 0387ms total)
T0294 005:129 JLINK_ReadReg(R7)  returns 0x00000000 (0000ms, 0387ms total)
T0294 005:129 JLINK_ReadReg(R8)  returns 0x00000000 (0000ms, 0387ms total)
T0294 005:129 JLINK_ReadReg(R9)  returns 0x00000000 (0000ms, 0387ms total)
T0294 005:129 JLINK_ReadReg(R10)  returns 0x0801353C (0000ms, 0387ms total)
T0294 005:129 JLINK_ReadReg(R11)  returns 0x00000000 (0000ms, 0387ms total)
T0294 005:129 JLINK_ReadReg(R12)  returns 0x200018B0 (0000ms, 0387ms total)
T0294 005:129 JLINK_ReadReg(R13 (SP))  returns 0x200078A0 (0000ms, 0387ms total)
T0294 005:129 JLINK_ReadReg(R14)  returns 0x0800027B (0000ms, 0387ms total)
T0294 005:129 JLINK_ReadReg(R15 (PC))  returns 0x080003AC (0000ms, 0387ms total)
T0294 005:129 JLINK_ReadReg(XPSR)  returns 0x61000000 (0000ms, 0387ms total)
T0294 005:129 JLINK_ReadReg(MSP)  returns 0x200078A0 (0000ms, 0387ms total)
T0294 005:129 JLINK_ReadReg(PSP)  returns 0x00000000 (0000ms, 0387ms total)
T0294 005:129 JLINK_ReadReg(CFBP)  returns 0x04000000 (0000ms, 0387ms total)
T0294 005:129 JLINK_ReadReg(FPSCR)  returns 0x03000000 (0003ms, 0390ms total)
T0294 005:133 JLINK_ReadReg(FPS0)  returns 0x00000000 (0000ms, 0390ms total)
T0294 005:133 JLINK_ReadReg(FPS1)  returns 0x00000000 (0000ms, 0390ms total)
T0294 005:133 JLINK_ReadReg(FPS2)  returns 0x00000000 (0000ms, 0390ms total)
T0294 005:133 JLINK_ReadReg(FPS3)  returns 0x00000000 (0000ms, 0390ms total)
T0294 005:133 JLINK_ReadReg(FPS4)  returns 0x00000000 (0000ms, 0390ms total)
T0294 005:133 JLINK_ReadReg(FPS5)  returns 0x00000000 (0000ms, 0390ms total)
T0294 005:133 JLINK_ReadReg(FPS6)  returns 0x00000000 (0000ms, 0390ms total)
T0294 005:133 JLINK_ReadReg(FPS7)  returns 0x00000000 (0000ms, 0390ms total)
T0294 005:133 JLINK_ReadReg(FPS8)  returns 0x00000000 (0000ms, 0390ms total)
T0294 005:133 JLINK_ReadReg(FPS9)  returns 0x00000000 (0000ms, 0390ms total)
T0294 005:133 JLINK_ReadReg(FPS10)  returns 0x00000000 (0000ms, 0390ms total)
T0294 005:133 JLINK_ReadReg(FPS11)  returns 0x00000000 (0000ms, 0390ms total)
T0294 005:133 JLINK_ReadReg(FPS12)  returns 0x00000000 (0000ms, 0390ms total)
T0294 005:133 JLINK_ReadReg(FPS13)  returns 0x00000000 (0000ms, 0390ms total)
T0294 005:133 JLINK_ReadReg(FPS14)  returns 0x00000000 (0000ms, 0390ms total)
T0294 005:133 JLINK_ReadReg(FPS15)  returns 0x00000000 (0000ms, 0390ms total)
T0294 005:133 JLINK_ReadReg(FPS16)  returns 0x00000000 (0000ms, 0390ms total)
T0294 005:133 JLINK_ReadReg(FPS17)  returns 0x00000000 (0000ms, 0390ms total)
T0294 005:133 JLINK_ReadReg(FPS18)  returns 0x00000000 (0000ms, 0390ms total)
T0294 005:133 JLINK_ReadReg(FPS19)  returns 0x00000000 (0000ms, 0390ms total)
T0294 005:133 JLINK_ReadReg(FPS20)  returns 0x00000000 (0000ms, 0390ms total)
T0294 005:133 JLINK_ReadReg(FPS21)  returns 0x00000000 (0000ms, 0390ms total)
T0294 005:133 JLINK_ReadReg(FPS22)  returns 0x00000000 (0000ms, 0390ms total)
T0294 005:133 JLINK_ReadReg(FPS23)  returns 0x00000000 (0000ms, 0390ms total)
T0294 005:134 JLINK_ReadReg(FPS24)  returns 0x00000000 (0000ms, 0391ms total)
T0294 005:134 JLINK_ReadReg(FPS25)  returns 0x00000000 (0000ms, 0391ms total)
T0294 005:134 JLINK_ReadReg(FPS26)  returns 0x00000000 (0000ms, 0391ms total)
T0294 005:134 JLINK_ReadReg(FPS27)  returns 0x00000000 (0000ms, 0391ms total)
T0294 005:134 JLINK_ReadReg(FPS28)  returns 0x00000000 (0000ms, 0391ms total)
T0294 005:134 JLINK_ReadReg(FPS29)  returns 0x00000000 (0000ms, 0391ms total)
T0294 005:134 JLINK_ReadReg(FPS30)  returns 0x00000000 (0000ms, 0391ms total)
T0294 005:134 JLINK_ReadReg(FPS31)  returns 0x00000000 (0000ms, 0391ms total)
T1128 005:155 JLINK_ReadMem (0x080003AA, 0x0002 Bytes, ...) -- CPU_ReadMem(64 bytes @ 0x08000380) -- Updating C cache (64 bytes @ 0x08000380) -- Read from C cache (2 bytes @ 0x080003AA) - Data: 10 BD  returns 0x00 (0000ms, 0391ms total)
T1128 005:155 JLINK_ReadMem (0x080003AC, 0x003C Bytes, ...) -- CPU_ReadMem(64 bytes @ 0x080003C0) -- Updating C cache (64 bytes @ 0x080003C0) -- Read from C cache (60 bytes @ 0x080003AC) - Data: 10 B5 09 F0 4D F8 FF F7 DC FF 00 20 10 BD 00 00 ...  returns 0x00 (0001ms, 0392ms total)
T0294 007:087 JLINK_SetBPEx(Addr = 0x0800028E, Type = 0xFFFFFFF2)  returns 0x00000007 (0000ms, 0392ms total)
T0294 007:087 JLINK_SetBPEx(Addr = 0x0800FAB8, Type = 0xFFFFFFF2)  returns 0x00000008 (0000ms, 0392ms total)
T0294 007:087 JLINK_SetBPEx(Addr = 0x08010D30, Type = 0xFFFFFFF2)  returns 0x00000009 (0001ms, 0393ms total)
T0294 007:088 JLINK_SetBPEx(Addr = 0x08010E60, Type = 0xFFFFFFF2)  returns 0x0000000A (0000ms, 0393ms total)
T0294 007:088 JLINK_SetBPEx(Addr = 0x08010BA0, Type = 0xFFFFFFF2)  returns 0x0000000B (0000ms, 0393ms total)
T0294 007:088 JLINK_Go() -- CPU_ReadMem(4 bytes @ 0xE0001000) -- CPU_WriteMem(4 bytes @ 0xE0002008) -- CPU_WriteMem(4 bytes @ 0xE000200C) -- CPU_WriteMem(4 bytes @ 0xE0002010) -- CPU_WriteMem(4 bytes @ 0xE0002014) -- CPU_WriteMem(4 bytes @ 0xE0002018) -- CPU_WriteMem(4 bytes @ 0xE000201C) (0004ms, 0397ms total)
T0294 007:193 JLINK_IsHalted()  returns TRUE (0002ms, 0399ms total)
T0294 007:195 JLINK_Halt()  returns 0x00 (0000ms, 0397ms total)
T0294 007:195 JLINK_IsHalted()  returns TRUE (0000ms, 0397ms total)
T0294 007:195 JLINK_IsHalted()  returns TRUE (0000ms, 0397ms total)
T0294 007:195 JLINK_IsHalted()  returns TRUE (0000ms, 0397ms total)
T0294 007:195 JLINK_ReadReg(R15 (PC))  returns 0x08010BA0 (0000ms, 0397ms total)
T0294 007:195 JLINK_ReadReg(XPSR)  returns 0x41000000 (0000ms, 0397ms total)
T0294 007:195 JLINK_ClrBPEx(BPHandle = 0x00000007)  returns 0x00 (0000ms, 0397ms total)
T0294 007:195 JLINK_ClrBPEx(BPHandle = 0x00000008)  returns 0x00 (0000ms, 0397ms total)
T0294 007:195 JLINK_ClrBPEx(BPHandle = 0x00000009)  returns 0x00 (0000ms, 0397ms total)
T0294 007:195 JLINK_ClrBPEx(BPHandle = 0x0000000A)  returns 0x00 (0000ms, 0397ms total)
T0294 007:195 JLINK_ClrBPEx(BPHandle = 0x0000000B)  returns 0x00 (0000ms, 0397ms total)
T0294 007:195 JLINK_ReadMemU32(0xE000ED30, 0x0001 Items, ...) -- CPU_ReadMem(4 bytes @ 0xE000ED30) - Data: 02 00 00 00  returns 0x01 (0001ms, 0398ms total)
T0294 007:196 JLINK_ReadMemU32(0xE0001028, 0x0001 Items, ...) -- CPU_ReadMem(4 bytes @ 0xE0001028) - Data: 00 00 00 00  returns 0x01 (0001ms, 0399ms total)
T0294 007:197 JLINK_ReadMemU32(0xE0001038, 0x0001 Items, ...) -- CPU_ReadMem(4 bytes @ 0xE0001038) - Data: 00 02 00 00  returns 0x01 (0001ms, 0400ms total)
T0294 007:198 JLINK_ReadMemU32(0xE0001048, 0x0001 Items, ...) -- CPU_ReadMem(4 bytes @ 0xE0001048) - Data: 00 00 00 00  returns 0x01 (0001ms, 0401ms total)
T0294 007:199 JLINK_ReadMemU32(0xE0001058, 0x0001 Items, ...) -- CPU_ReadMem(4 bytes @ 0xE0001058) - Data: 00 00 00 00  returns 0x01 (0001ms, 0402ms total)
T0294 007:200 JLINK_ReadReg(R0)  returns 0x00000000 (0000ms, 0402ms total)
T0294 007:200 JLINK_ReadReg(R1)  returns 0x20000A10 (0000ms, 0402ms total)
T0294 007:200 JLINK_ReadReg(R2)  returns 0x2000039C (0000ms, 0402ms total)
T0294 007:200 JLINK_ReadReg(R3)  returns 0x20000A04 (0000ms, 0402ms total)
T0294 007:200 JLINK_ReadReg(R4)  returns 0x00000000 (0000ms, 0402ms total)
T0294 007:200 JLINK_ReadReg(R5)  returns 0x20001840 (0000ms, 0402ms total)
T0294 007:200 JLINK_ReadReg(R6)  returns 0x00000000 (0000ms, 0402ms total)
T0294 007:200 JLINK_ReadReg(R7)  returns 0x00000000 (0000ms, 0402ms total)
T0294 007:200 JLINK_ReadReg(R8)  returns 0x00000000 (0000ms, 0402ms total)
T0294 007:200 JLINK_ReadReg(R9)  returns 0x00000000 (0000ms, 0402ms total)
T0294 007:200 JLINK_ReadReg(R10)  returns 0x0801353C (0000ms, 0402ms total)
T0294 007:200 JLINK_ReadReg(R11)  returns 0x00000000 (0000ms, 0402ms total)
T0294 007:200 JLINK_ReadReg(R12)  returns 0x00000150 (0000ms, 0402ms total)
T0294 007:200 JLINK_ReadReg(R13 (SP))  returns 0x20007888 (0000ms, 0402ms total)
T0294 007:200 JLINK_ReadReg(R14)  returns 0x080004BB (0000ms, 0402ms total)
T0294 007:200 JLINK_ReadReg(R15 (PC))  returns 0x08010BA0 (0000ms, 0402ms total)
T0294 007:200 JLINK_ReadReg(XPSR)  returns 0x41000000 (0000ms, 0402ms total)
T0294 007:200 JLINK_ReadReg(MSP)  returns 0x20007888 (0000ms, 0402ms total)
T0294 007:200 JLINK_ReadReg(PSP)  returns 0x00000000 (0000ms, 0402ms total)
T0294 007:200 JLINK_ReadReg(CFBP)  returns 0x04000001 (0000ms, 0402ms total)
T0294 007:200 JLINK_ReadReg(FPSCR)  returns 0x03000000 (0003ms, 0405ms total)
T0294 007:203 JLINK_ReadReg(FPS0)  returns 0x00000000 (0000ms, 0405ms total)
T0294 007:203 JLINK_ReadReg(FPS1)  returns 0x00000000 (0000ms, 0405ms total)
T0294 007:203 JLINK_ReadReg(FPS2)  returns 0x00000000 (0000ms, 0405ms total)
T0294 007:203 JLINK_ReadReg(FPS3)  returns 0x00000000 (0000ms, 0405ms total)
T0294 007:203 JLINK_ReadReg(FPS4)  returns 0x00000000 (0000ms, 0405ms total)
T0294 007:203 JLINK_ReadReg(FPS5)  returns 0x00000000 (0000ms, 0405ms total)
T0294 007:203 JLINK_ReadReg(FPS6)  returns 0x00000000 (0000ms, 0405ms total)
T0294 007:203 JLINK_ReadReg(FPS7)  returns 0x00000000 (0000ms, 0405ms total)
T0294 007:203 JLINK_ReadReg(FPS8)  returns 0x00000000 (0000ms, 0405ms total)
T0294 007:203 JLINK_ReadReg(FPS9)  returns 0x00000000 (0000ms, 0405ms total)
T0294 007:203 JLINK_ReadReg(FPS10)  returns 0x00000000 (0000ms, 0405ms total)
T0294 007:203 JLINK_ReadReg(FPS11)  returns 0x00000000 (0000ms, 0405ms total)
T0294 007:203 JLINK_ReadReg(FPS12)  returns 0x00000000 (0000ms, 0405ms total)
T0294 007:203 JLINK_ReadReg(FPS13)  returns 0x00000000 (0000ms, 0405ms total)
T0294 007:203 JLINK_ReadReg(FPS14)  returns 0x00000000 (0000ms, 0405ms total)
T0294 007:203 JLINK_ReadReg(FPS15)  returns 0x00000000 (0000ms, 0405ms total)
T0294 007:203 JLINK_ReadReg(FPS16)  returns 0x00000000 (0000ms, 0405ms total)
T0294 007:203 JLINK_ReadReg(FPS17)  returns 0x00000000 (0000ms, 0405ms total)
T0294 007:203 JLINK_ReadReg(FPS18)  returns 0x00000000 (0000ms, 0405ms total)
T0294 007:203 JLINK_ReadReg(FPS19)  returns 0x00000000 (0000ms, 0405ms total)
T0294 007:203 JLINK_ReadReg(FPS20)  returns 0x00000000 (0000ms, 0405ms total)
T0294 007:203 JLINK_ReadReg(FPS21)  returns 0x00000000 (0000ms, 0405ms total)
T0294 007:203 JLINK_ReadReg(FPS22)  returns 0x00000000 (0000ms, 0405ms total)
T0294 007:204 JLINK_ReadReg(FPS23)  returns 0x00000000 (0000ms, 0405ms total)
T0294 007:204 JLINK_ReadReg(FPS24)  returns 0x00000000 (0000ms, 0405ms total)
T0294 007:204 JLINK_ReadReg(FPS25)  returns 0x00000000 (0000ms, 0405ms total)
T0294 007:204 JLINK_ReadReg(FPS26)  returns 0x00000000 (0000ms, 0405ms total)
T0294 007:204 JLINK_ReadReg(FPS27)  returns 0x00000000 (0000ms, 0405ms total)
T0294 007:204 JLINK_ReadReg(FPS28)  returns 0x00000000 (0000ms, 0405ms total)
T0294 007:204 JLINK_ReadReg(FPS29)  returns 0x00000000 (0000ms, 0405ms total)
T0294 007:204 JLINK_ReadReg(FPS30)  returns 0x00000000 (0000ms, 0405ms total)
T0294 007:204 JLINK_ReadReg(FPS31)  returns 0x00000000 (0000ms, 0405ms total)
T1128 007:204 JLINK_ReadMem (0x2000788C, 0x0004 Bytes, ...) -- CPU_ReadMem(64 bytes @ 0x20007880) -- Updating C cache (64 bytes @ 0x20007880) -- Read from C cache (4 bytes @ 0x2000788C) - Data: 75 03 00 08  returns 0x00 (0001ms, 0406ms total)
T1128 007:205 JLINK_ReadMem (0x20007888, 0x0004 Bytes, ...) -- Read from C cache (4 bytes @ 0x20007888) - Data: 00 00 00 00  returns 0x00 (0000ms, 0406ms total)
T1128 007:205 JLINK_ReadMem (0x20007894, 0x0004 Bytes, ...) -- Read from C cache (4 bytes @ 0x20007894) - Data: B7 03 00 08  returns 0x00 (0000ms, 0406ms total)
T1128 007:205 JLINK_ReadMem (0x20007890, 0x0004 Bytes, ...) -- Read from C cache (4 bytes @ 0x20007890) - Data: 00 00 00 00  returns 0x00 (0000ms, 0406ms total)
T1128 007:205 JLINK_ReadMem (0x2000789C, 0x0004 Bytes, ...) -- Read from C cache (4 bytes @ 0x2000789C) - Data: 7B 02 00 08  returns 0x00 (0000ms, 0406ms total)
T1128 007:228 JLINK_ReadMem (0x08010AA0, 0x003C Bytes, ...) -- CPU_ReadMem(128 bytes @ 0x08010A80) -- Updating C cache (128 bytes @ 0x08010A80) -- Read from C cache (60 bytes @ 0x08010AA0) - Data: 28 A0 F6 F7 6C FF 15 B1 01 2D 02 D1 00 E0 00 E0 ...  returns 0x00 (0002ms, 0408ms total)
T1128 007:230 JLINK_ReadMem (0x08010ADC, 0x003C Bytes, ...) -- CPU_ReadMem(64 bytes @ 0x08010B00) -- Updating C cache (64 bytes @ 0x08010B00) -- Read from C cache (60 bytes @ 0x08010ADC) - Data: 2D 48 28 63 2D 48 68 63 2D 48 A8 63 03 22 31 46 ...  returns 0x00 (0001ms, 0409ms total)
T1128 007:231 JLINK_ReadMem (0x08010B9C, 0x003C Bytes, ...) -- CPU_ReadMem(128 bytes @ 0x08010B80) -- Updating C cache (128 bytes @ 0x08010B80) -- Read from C cache (60 bytes @ 0x08010B9C) - Data: 8F 0A 01 08 1F B5 01 21 08 46 F2 F7 21 FC 05 22 ...  returns 0x00 (0001ms, 0410ms total)
T1128 009:462 JLINK_ReadMem (0x200016C8, 0x0001 Bytes, ...) -- CPU_ReadMem(64 bytes @ 0x200016C0) -- Updating C cache (64 bytes @ 0x200016C0) -- Read from C cache (1 bytes @ 0x200016C8) - Data: 00  returns 0x00 (0002ms, 0412ms total)
T1128 009:464 JLINK_ReadMem (0x200016C9, 0x0001 Bytes, ...) -- Read from C cache (1 bytes @ 0x200016C9) - Data: 00  returns 0x00 (0000ms, 0412ms total)
T1128 009:464 JLINK_ReadMem (0x200016CA, 0x0001 Bytes, ...) -- Read from C cache (1 bytes @ 0x200016CA) - Data: 00  returns 0x00 (0000ms, 0412ms total)
T1128 009:464 JLINK_ReadMem (0x200016CB, 0x0001 Bytes, ...) -- Read from C cache (1 bytes @ 0x200016CB) - Data: 00  returns 0x00 (0000ms, 0412ms total)
T1128 009:464 JLINK_ReadMem (0x200016CC, 0x0001 Bytes, ...) -- Read from C cache (1 bytes @ 0x200016CC) - Data: 00  returns 0x00 (0000ms, 0412ms total)
T1128 009:464 JLINK_ReadMem (0x200016CD, 0x0001 Bytes, ...) -- Read from C cache (1 bytes @ 0x200016CD) - Data: 00  returns 0x00 (0000ms, 0412ms total)
T1128 009:464 JLINK_ReadMem (0x200016CE, 0x0001 Bytes, ...) -- Read from C cache (1 bytes @ 0x200016CE) - Data: 00  returns 0x00 (0000ms, 0412ms total)
T1128 009:464 JLINK_ReadMem (0x200016CF, 0x0001 Bytes, ...) -- Read from C cache (1 bytes @ 0x200016CF) - Data: 00  returns 0x00 (0000ms, 0412ms total)
T1128 009:464 JLINK_ReadMem (0x200016D0, 0x0001 Bytes, ...) -- Read from C cache (1 bytes @ 0x200016D0) - Data: 00  returns 0x00 (0000ms, 0412ms total)
T1128 009:464 JLINK_ReadMem (0x200016D1, 0x0001 Bytes, ...) -- Read from C cache (1 bytes @ 0x200016D1) - Data: 00  returns 0x00 (0000ms, 0412ms total)
T1128 009:464 JLINK_ReadMem (0x200016D4, 0x0004 Bytes, ...) -- Read from C cache (4 bytes @ 0x200016D4) - Data: 00 00 00 00  returns 0x00 (0000ms, 0412ms total)
T1128 009:464 JLINK_ReadMem (0x200016D8, 0x0004 Bytes, ...) -- Read from C cache (4 bytes @ 0x200016D8) - Data: 00 00 00 00  returns 0x00 (0001ms, 0413ms total)
T1128 009:465 JLINK_ReadMem (0x200016DC, 0x0001 Bytes, ...) -- Read from C cache (1 bytes @ 0x200016DC) - Data: 00  returns 0x00 (0000ms, 0413ms total)
T1128 009:465 JLINK_ReadMem (0x200016DE, 0x0002 Bytes, ...) -- Read from C cache (2 bytes @ 0x200016DE) - Data: 00 00  returns 0x00 (0000ms, 0413ms total)
T1128 009:465 JLINK_ReadMem (0x200016E0, 0x0002 Bytes, ...) -- Read from C cache (2 bytes @ 0x200016E0) - Data: 00 00  returns 0x00 (0000ms, 0413ms total)
T1128 009:465 JLINK_ReadMem (0x200016E2, 0x0001 Bytes, ...) -- Read from C cache (1 bytes @ 0x200016E2) - Data: 00  returns 0x00 (0000ms, 0413ms total)
T1128 009:465 JLINK_ReadMem (0x200016E3, 0x0001 Bytes, ...) -- Read from C cache (1 bytes @ 0x200016E3) - Data: 00  returns 0x00 (0000ms, 0413ms total)
T1128 009:465 JLINK_ReadMem (0x200016E4, 0x0004 Bytes, ...) -- Read from C cache (4 bytes @ 0x200016E4) - Data: 00 00 00 00  returns 0x00 (0000ms, 0413ms total)
T1128 009:465 JLINK_ReadMem (0x200016E8, 0x0004 Bytes, ...) -- Read from C cache (4 bytes @ 0x200016E8) - Data: 00 00 00 00  returns 0x00 (0000ms, 0413ms total)
T1128 009:465 JLINK_ReadMem (0x200016EC, 0x0004 Bytes, ...) -- Read from C cache (4 bytes @ 0x200016EC) - Data: 00 00 00 00  returns 0x00 (0000ms, 0413ms total)
T1128 009:465 JLINK_ReadMem (0x200016F0, 0x0004 Bytes, ...) -- Read from C cache (4 bytes @ 0x200016F0) - Data: 00 00 00 00  returns 0x00 (0000ms, 0413ms total)
T1128 009:465 JLINK_ReadMem (0x200016F4, 0x0004 Bytes, ...) -- Read from C cache (4 bytes @ 0x200016F4) - Data: 00 00 00 00  returns 0x00 (0000ms, 0413ms total)
T1128 009:465 JLINK_ReadMem (0x200016F8, 0x0004 Bytes, ...) -- Read from C cache (4 bytes @ 0x200016F8) - Data: 00 00 00 00  returns 0x00 (0000ms, 0413ms total)
T1128 009:465 JLINK_ReadMem (0x200016FC, 0x0004 Bytes, ...) -- Read from C cache (4 bytes @ 0x200016FC) - Data: 00 00 00 00  returns 0x00 (0000ms, 0413ms total)
T0294 064:960 JLINK_Step() -- Read from C cache (2 bytes @ 0x08010BA0) -- CPU_ReadMem(4 bytes @ 0xE000ED18) -- CPU_WriteMem(4 bytes @ 0xE000ED18) -- CPU_ReadMem(4 bytes @ 0xE000ED18) -- CPU_WriteMem(4 bytes @ 0xE000ED18) -- CPU_ReadMem(4 bytes @ 0xE0001004) -- CPU_WriteMem(24 bytes @ 0x20007870) -- Simulated  returns 0x00 (0007ms, 0420ms total)
T0294 064:967 JLINK_ReadReg(R15 (PC))  returns 0x08010BA2 (0000ms, 0420ms total)
T0294 064:967 JLINK_ReadReg(XPSR)  returns 0x41000000 (0000ms, 0420ms total)
T0294 064:967 JLINK_ReadReg(R0)  returns 0x00000000 (0000ms, 0420ms total)
T0294 064:967 JLINK_ReadReg(R1)  returns 0x20000A10 (0000ms, 0420ms total)
T0294 064:967 JLINK_ReadReg(R2)  returns 0x2000039C (0000ms, 0420ms total)
T0294 064:967 JLINK_ReadReg(R3)  returns 0x20000A04 (0000ms, 0420ms total)
T0294 064:967 JLINK_ReadReg(R4)  returns 0x00000000 (0000ms, 0420ms total)
T0294 064:967 JLINK_ReadReg(R5)  returns 0x20001840 (0000ms, 0420ms total)
T0294 064:967 JLINK_ReadReg(R6)  returns 0x00000000 (0000ms, 0420ms total)
T0294 064:967 JLINK_ReadReg(R7)  returns 0x00000000 (0000ms, 0420ms total)
T0294 064:967 JLINK_ReadReg(R8)  returns 0x00000000 (0000ms, 0420ms total)
T0294 064:967 JLINK_ReadReg(R9)  returns 0x00000000 (0000ms, 0420ms total)
T0294 064:967 JLINK_ReadReg(R10)  returns 0x0801353C (0000ms, 0420ms total)
T0294 064:967 JLINK_ReadReg(R11)  returns 0x00000000 (0000ms, 0420ms total)
T0294 064:967 JLINK_ReadReg(R12)  returns 0x00000150 (0000ms, 0420ms total)
T0294 064:967 JLINK_ReadReg(R13 (SP))  returns 0x20007870 (0000ms, 0420ms total)
T0294 064:967 JLINK_ReadReg(R14)  returns 0x080004BB (0000ms, 0420ms total)
T0294 064:967 JLINK_ReadReg(R15 (PC))  returns 0x08010BA2 (0000ms, 0420ms total)
T0294 064:967 JLINK_ReadReg(XPSR)  returns 0x41000000 (0000ms, 0420ms total)
T0294 064:967 JLINK_ReadReg(MSP)  returns 0x20007870 (0000ms, 0420ms total)
T0294 064:967 JLINK_ReadReg(PSP)  returns 0x00000000 (0000ms, 0420ms total)
T0294 064:967 JLINK_ReadReg(CFBP)  returns 0x04000001 (0000ms, 0420ms total)
T0294 064:967 JLINK_ReadReg(FPSCR)  returns 0x03000000 (0000ms, 0420ms total)
T0294 064:967 JLINK_ReadReg(FPS0)  returns 0x00000000 (0000ms, 0420ms total)
T0294 064:967 JLINK_ReadReg(FPS1)  returns 0x00000000 (0000ms, 0420ms total)
T0294 064:967 JLINK_ReadReg(FPS2)  returns 0x00000000 (0000ms, 0420ms total)
T0294 064:968 JLINK_ReadReg(FPS3)  returns 0x00000000 (0000ms, 0420ms total)
T0294 064:968 JLINK_ReadReg(FPS4)  returns 0x00000000 (0000ms, 0420ms total)
T0294 064:968 JLINK_ReadReg(FPS5)  returns 0x00000000 (0000ms, 0420ms total)
T0294 064:968 JLINK_ReadReg(FPS6)  returns 0x00000000 (0000ms, 0420ms total)
T0294 064:968 JLINK_ReadReg(FPS7)  returns 0x00000000 (0000ms, 0420ms total)
T0294 064:968 JLINK_ReadReg(FPS8)  returns 0x00000000 (0000ms, 0420ms total)
T0294 064:968 JLINK_ReadReg(FPS9)  returns 0x00000000 (0000ms, 0420ms total)
T0294 064:968 JLINK_ReadReg(FPS10)  returns 0x00000000 (0000ms, 0420ms total)
T0294 064:968 JLINK_ReadReg(FPS11)  returns 0x00000000 (0000ms, 0420ms total)
T0294 064:968 JLINK_ReadReg(FPS12)  returns 0x00000000 (0000ms, 0420ms total)
T0294 064:968 JLINK_ReadReg(FPS13)  returns 0x00000000 (0000ms, 0420ms total)
T0294 064:968 JLINK_ReadReg(FPS14)  returns 0x00000000 (0000ms, 0420ms total)
T0294 064:968 JLINK_ReadReg(FPS15)  returns 0x00000000 (0000ms, 0420ms total)
T0294 064:968 JLINK_ReadReg(FPS16)  returns 0x00000000 (0000ms, 0420ms total)
T0294 064:968 JLINK_ReadReg(FPS17)  returns 0x00000000 (0000ms, 0420ms total)
T0294 064:968 JLINK_ReadReg(FPS18)  returns 0x00000000 (0000ms, 0420ms total)
T0294 064:968 JLINK_ReadReg(FPS19)  returns 0x00000000 (0000ms, 0420ms total)
T0294 064:968 JLINK_ReadReg(FPS20)  returns 0x00000000 (0000ms, 0420ms total)
T0294 064:968 JLINK_ReadReg(FPS21)  returns 0x00000000 (0000ms, 0420ms total)
T0294 064:968 JLINK_ReadReg(FPS22)  returns 0x00000000 (0000ms, 0420ms total)
T0294 064:968 JLINK_ReadReg(FPS23)  returns 0x00000000 (0000ms, 0420ms total)
T0294 064:968 JLINK_ReadReg(FPS24)  returns 0x00000000 (0000ms, 0420ms total)
T0294 064:968 JLINK_ReadReg(FPS25)  returns 0x00000000 (0000ms, 0420ms total)
T0294 064:968 JLINK_ReadReg(FPS26)  returns 0x00000000 (0000ms, 0420ms total)
T0294 064:968 JLINK_ReadReg(FPS27)  returns 0x00000000 (0000ms, 0420ms total)
T0294 064:968 JLINK_ReadReg(FPS28)  returns 0x00000000 (0000ms, 0420ms total)
T0294 064:968 JLINK_ReadReg(FPS29)  returns 0x00000000 (0000ms, 0420ms total)
T0294 064:968 JLINK_ReadReg(FPS30)  returns 0x00000000 (0000ms, 0420ms total)
T0294 064:968 JLINK_ReadReg(FPS31)  returns 0x00000000 (0000ms, 0420ms total)
T1128 064:969 JLINK_ReadMem (0x20007884, 0x0004 Bytes, ...) -- CPU_ReadMem(64 bytes @ 0x20007880) -- Updating C cache (64 bytes @ 0x20007880) -- Read from C cache (4 bytes @ 0x20007884) - Data: BB 04 00 08  returns 0x00 (0001ms, 0421ms total)
T1128 064:970 JLINK_ReadMem (0x20007880, 0x0004 Bytes, ...) -- Read from C cache (4 bytes @ 0x20007880) - Data: 00 00 00 00  returns 0x00 (0000ms, 0421ms total)
T1128 064:970 JLINK_ReadMem (0x2000788C, 0x0004 Bytes, ...) -- Read from C cache (4 bytes @ 0x2000788C) - Data: 75 03 00 08  returns 0x00 (0000ms, 0421ms total)
T1128 064:970 JLINK_ReadMem (0x20007888, 0x0004 Bytes, ...) -- Read from C cache (4 bytes @ 0x20007888) - Data: 00 00 00 00  returns 0x00 (0000ms, 0421ms total)
T1128 064:970 JLINK_ReadMem (0x20007894, 0x0004 Bytes, ...) -- Read from C cache (4 bytes @ 0x20007894) - Data: B7 03 00 08  returns 0x00 (0000ms, 0421ms total)
T1128 064:970 JLINK_ReadMem (0x20007890, 0x0004 Bytes, ...) -- Read from C cache (4 bytes @ 0x20007890) - Data: 00 00 00 00  returns 0x00 (0000ms, 0421ms total)
T1128 064:970 JLINK_ReadMem (0x2000789C, 0x0004 Bytes, ...) -- Read from C cache (4 bytes @ 0x2000789C) - Data: 7B 02 00 08  returns 0x00 (0000ms, 0421ms total)
T1128 064:974 JLINK_ReadMem (0x08010BA2, 0x0002 Bytes, ...) -- Read from C cache (2 bytes @ 0x08010BA2) - Data: 01 21  returns 0x00 (0000ms, 0421ms total)
T1128 064:974 JLINK_ReadMem (0x08010BA4, 0x003C Bytes, ...) -- Read from C cache (60 bytes @ 0x08010BA4) - Data: 08 46 F2 F7 21 FC 05 22 11 46 4B 48 F1 F7 BF FF ...  returns 0x00 (0000ms, 0421ms total)
T0294 066:800 JLINK_Step() -- Read from C cache (2 bytes @ 0x08010BA2) -- Simulated  returns 0x00 (0000ms, 0421ms total)
T0294 066:800 JLINK_ReadReg(R15 (PC))  returns 0x08010BA4 (0001ms, 0422ms total)
T0294 066:801 JLINK_ReadReg(XPSR)  returns 0x01000000 (0000ms, 0422ms total)
T0294 066:801 JLINK_Step() -- Read from C cache (2 bytes @ 0x08010BA4) -- Simulated  returns 0x00 (0000ms, 0422ms total)
T0294 066:801 JLINK_ReadReg(R15 (PC))  returns 0x08010BA6 (0000ms, 0422ms total)
T0294 066:801 JLINK_ReadReg(XPSR)  returns 0x01000000 (0000ms, 0422ms total)
T0294 066:801 JLINK_SetBPEx(Addr = 0x08010BAA, Type = 0xFFFFFFF2)  returns 0x0000000C (0000ms, 0422ms total)
T0294 066:801 JLINK_SetBPEx(Addr = 0x0800028E, Type = 0xFFFFFFF2)  returns 0x0000000D (0000ms, 0422ms total)
T0294 066:801 JLINK_SetBPEx(Addr = 0x0800FAB8, Type = 0xFFFFFFF2)  returns 0x0000000E (0000ms, 0422ms total)
T0294 066:801 JLINK_SetBPEx(Addr = 0x08010D30, Type = 0xFFFFFFF2)  returns 0x0000000F (0000ms, 0422ms total)
T0294 066:801 JLINK_SetBPEx(Addr = 0x08010E60, Type = 0xFFFFFFF2)  returns 0x00000010 (0000ms, 0422ms total)
T0294 066:801 JLINK_SetBPEx(Addr = 0x08010BA0, Type = 0xFFFFFFF2)  returns 0x00000011 (0000ms, 0422ms total)
T0294 066:801 JLINK_Go() -- CPU_ReadMem(4 bytes @ 0xE0001000) -- CPU_WriteMem(4 bytes @ 0xE0002008) -- CPU_WriteMem(4 bytes @ 0xE000200C) -- CPU_WriteMem(4 bytes @ 0xE0002010) -- CPU_WriteMem(4 bytes @ 0xE0002014) -- CPU_WriteMem(4 bytes @ 0xE0002018) -- CPU_WriteMem(4 bytes @ 0xE000201C) -- CPU_WriteMem(4 bytes @ 0xE0001004) (0005ms, 0427ms total)
T0294 066:907 JLINK_IsHalted()  returns TRUE (0002ms, 0429ms total)
T0294 066:909 JLINK_Halt()  returns 0x00 (0000ms, 0427ms total)
T0294 066:910 JLINK_IsHalted()  returns TRUE (0000ms, 0428ms total)
T0294 066:910 JLINK_IsHalted()  returns TRUE (0000ms, 0428ms total)
T0294 066:910 JLINK_IsHalted()  returns TRUE (0000ms, 0428ms total)
T0294 066:910 JLINK_ReadReg(R15 (PC))  returns 0x08010BAA (0000ms, 0428ms total)
T0294 066:910 JLINK_ReadReg(XPSR)  returns 0x01000000 (0000ms, 0428ms total)
T0294 066:910 JLINK_ClrBPEx(BPHandle = 0x0000000C)  returns 0x00 (0000ms, 0428ms total)
T0294 066:910 JLINK_ClrBPEx(BPHandle = 0x0000000D)  returns 0x00 (0000ms, 0428ms total)
T0294 066:910 JLINK_ClrBPEx(BPHandle = 0x0000000E)  returns 0x00 (0000ms, 0428ms total)
T0294 066:910 JLINK_ClrBPEx(BPHandle = 0x0000000F)  returns 0x00 (0000ms, 0428ms total)
T0294 066:910 JLINK_ClrBPEx(BPHandle = 0x00000010)  returns 0x00 (0000ms, 0428ms total)
T0294 066:910 JLINK_ClrBPEx(BPHandle = 0x00000011)  returns 0x00 (0000ms, 0428ms total)
T0294 066:910 JLINK_ReadMemU32(0xE000ED30, 0x0001 Items, ...) -- CPU_ReadMem(4 bytes @ 0xE000ED30) - Data: 02 00 00 00  returns 0x01 (0001ms, 0429ms total)
T0294 066:911 JLINK_ReadMemU32(0xE0001028, 0x0001 Items, ...) -- CPU_ReadMem(4 bytes @ 0xE0001028) - Data: 00 00 00 00  returns 0x01 (0001ms, 0430ms total)
T0294 066:912 JLINK_ReadMemU32(0xE0001038, 0x0001 Items, ...) -- CPU_ReadMem(4 bytes @ 0xE0001038) - Data: 00 02 00 00  returns 0x01 (0001ms, 0431ms total)
T0294 066:913 JLINK_ReadMemU32(0xE0001048, 0x0001 Items, ...) -- CPU_ReadMem(4 bytes @ 0xE0001048) - Data: 00 00 00 00  returns 0x01 (0001ms, 0432ms total)
T0294 066:914 JLINK_ReadMemU32(0xE0001058, 0x0001 Items, ...) -- CPU_ReadMem(4 bytes @ 0xE0001058) - Data: 00 00 00 00  returns 0x01 (0001ms, 0433ms total)
T0294 066:915 JLINK_ReadReg(R0)  returns 0x0010000B (0000ms, 0433ms total)
T0294 066:915 JLINK_ReadReg(R1)  returns 0x40023830 (0000ms, 0433ms total)
T0294 066:915 JLINK_ReadReg(R2)  returns 0x2000039C (0000ms, 0433ms total)
T0294 066:915 JLINK_ReadReg(R3)  returns 0x20000A04 (0000ms, 0433ms total)
T0294 066:915 JLINK_ReadReg(R4)  returns 0x00000000 (0000ms, 0433ms total)
T0294 066:915 JLINK_ReadReg(R5)  returns 0x20001840 (0000ms, 0433ms total)
T0294 066:915 JLINK_ReadReg(R6)  returns 0x00000000 (0000ms, 0433ms total)
T0294 066:915 JLINK_ReadReg(R7)  returns 0x00000000 (0000ms, 0433ms total)
T0294 066:915 JLINK_ReadReg(R8)  returns 0x00000000 (0000ms, 0433ms total)
T0294 066:915 JLINK_ReadReg(R9)  returns 0x00000000 (0000ms, 0433ms total)
T0294 066:915 JLINK_ReadReg(R10)  returns 0x0801353C (0000ms, 0433ms total)
T0294 066:915 JLINK_ReadReg(R11)  returns 0x00000000 (0000ms, 0433ms total)
T0294 066:915 JLINK_ReadReg(R12)  returns 0x00000150 (0000ms, 0433ms total)
T0294 066:915 JLINK_ReadReg(R13 (SP))  returns 0x20007870 (0000ms, 0433ms total)
T0294 066:915 JLINK_ReadReg(R14)  returns 0x08010BAB (0000ms, 0433ms total)
T0294 066:915 JLINK_ReadReg(R15 (PC))  returns 0x08010BAA (0000ms, 0433ms total)
T0294 066:915 JLINK_ReadReg(XPSR)  returns 0x01000000 (0000ms, 0433ms total)
T0294 066:915 JLINK_ReadReg(MSP)  returns 0x20007870 (0000ms, 0433ms total)
T0294 066:915 JLINK_ReadReg(PSP)  returns 0x00000000 (0000ms, 0433ms total)
T0294 066:915 JLINK_ReadReg(CFBP)  returns 0x04000001 (0000ms, 0433ms total)
T0294 066:915 JLINK_ReadReg(FPSCR)  returns 0x03000000 (0004ms, 0437ms total)
T0294 066:919 JLINK_ReadReg(FPS0)  returns 0x00000000 (0000ms, 0437ms total)
T0294 066:919 JLINK_ReadReg(FPS1)  returns 0x00000000 (0000ms, 0437ms total)
T0294 066:919 JLINK_ReadReg(FPS2)  returns 0x00000000 (0000ms, 0437ms total)
T0294 066:919 JLINK_ReadReg(FPS3)  returns 0x00000000 (0000ms, 0437ms total)
T0294 066:919 JLINK_ReadReg(FPS4)  returns 0x00000000 (0000ms, 0437ms total)
T0294 066:919 JLINK_ReadReg(FPS5)  returns 0x00000000 (0000ms, 0437ms total)
T0294 066:919 JLINK_ReadReg(FPS6)  returns 0x00000000 (0000ms, 0437ms total)
T0294 066:919 JLINK_ReadReg(FPS7)  returns 0x00000000 (0000ms, 0437ms total)
T0294 066:919 JLINK_ReadReg(FPS8)  returns 0x00000000 (0000ms, 0437ms total)
T0294 066:919 JLINK_ReadReg(FPS9)  returns 0x00000000 (0000ms, 0437ms total)
T0294 066:919 JLINK_ReadReg(FPS10)  returns 0x00000000 (0000ms, 0437ms total)
T0294 066:919 JLINK_ReadReg(FPS11)  returns 0x00000000 (0000ms, 0437ms total)
T0294 066:919 JLINK_ReadReg(FPS12)  returns 0x00000000 (0000ms, 0437ms total)
T0294 066:919 JLINK_ReadReg(FPS13)  returns 0x00000000 (0000ms, 0437ms total)
T0294 066:919 JLINK_ReadReg(FPS14)  returns 0x00000000 (0000ms, 0437ms total)
T0294 066:919 JLINK_ReadReg(FPS15)  returns 0x00000000 (0000ms, 0437ms total)
T0294 066:919 JLINK_ReadReg(FPS16)  returns 0x00000000 (0000ms, 0437ms total)
T0294 066:919 JLINK_ReadReg(FPS17)  returns 0x00000000 (0000ms, 0437ms total)
T0294 066:919 JLINK_ReadReg(FPS18)  returns 0x00000000 (0000ms, 0437ms total)
T0294 066:919 JLINK_ReadReg(FPS19)  returns 0x00000000 (0000ms, 0437ms total)
T0294 066:919 JLINK_ReadReg(FPS20)  returns 0x00000000 (0000ms, 0437ms total)
T0294 066:919 JLINK_ReadReg(FPS21)  returns 0x00000000 (0000ms, 0437ms total)
T0294 066:919 JLINK_ReadReg(FPS22)  returns 0x00000000 (0000ms, 0437ms total)
T0294 066:919 JLINK_ReadReg(FPS23)  returns 0x00000000 (0000ms, 0437ms total)
T0294 066:919 JLINK_ReadReg(FPS24)  returns 0x00000000 (0000ms, 0437ms total)
T0294 066:919 JLINK_ReadReg(FPS25)  returns 0x00000000 (0000ms, 0437ms total)
T0294 066:919 JLINK_ReadReg(FPS26)  returns 0x00000000 (0000ms, 0437ms total)
T0294 066:919 JLINK_ReadReg(FPS27)  returns 0x00000000 (0000ms, 0437ms total)
T0294 066:919 JLINK_ReadReg(FPS28)  returns 0x00000000 (0000ms, 0437ms total)
T0294 066:919 JLINK_ReadReg(FPS29)  returns 0x00000000 (0000ms, 0437ms total)
T0294 066:919 JLINK_ReadReg(FPS30)  returns 0x00000000 (0000ms, 0437ms total)
T0294 066:919 JLINK_ReadReg(FPS31)  returns 0x00000000 (0000ms, 0437ms total)
T1128 066:921 JLINK_ReadMem (0x20007884, 0x0004 Bytes, ...) -- CPU_ReadMem(64 bytes @ 0x20007880) -- Updating C cache (64 bytes @ 0x20007880) -- Read from C cache (4 bytes @ 0x20007884) - Data: BB 04 00 08  returns 0x00 (0002ms, 0439ms total)
T1128 066:923 JLINK_ReadMem (0x20007880, 0x0004 Bytes, ...) -- Read from C cache (4 bytes @ 0x20007880) - Data: 00 00 00 00  returns 0x00 (0000ms, 0439ms total)
T1128 066:923 JLINK_ReadMem (0x2000788C, 0x0004 Bytes, ...) -- Read from C cache (4 bytes @ 0x2000788C) - Data: 75 03 00 08  returns 0x00 (0000ms, 0439ms total)
T1128 066:923 JLINK_ReadMem (0x20007888, 0x0004 Bytes, ...) -- Read from C cache (4 bytes @ 0x20007888) - Data: 00 00 00 00  returns 0x00 (0000ms, 0439ms total)
T1128 066:923 JLINK_ReadMem (0x20007894, 0x0004 Bytes, ...) -- Read from C cache (4 bytes @ 0x20007894) - Data: B7 03 00 08  returns 0x00 (0000ms, 0439ms total)
T1128 066:923 JLINK_ReadMem (0x20007890, 0x0004 Bytes, ...) -- Read from C cache (4 bytes @ 0x20007890) - Data: 00 00 00 00  returns 0x00 (0000ms, 0439ms total)
T1128 066:923 JLINK_ReadMem (0x2000789C, 0x0004 Bytes, ...) -- Read from C cache (4 bytes @ 0x2000789C) - Data: 7B 02 00 08  returns 0x00 (0000ms, 0439ms total)
T1128 066:931 JLINK_ReadMem (0x08010BAA, 0x0002 Bytes, ...) -- CPU_ReadMem(64 bytes @ 0x08010B80) -- Updating C cache (64 bytes @ 0x08010B80) -- Read from C cache (2 bytes @ 0x08010BAA) - Data: 05 22  returns 0x00 (0002ms, 0441ms total)
T1128 066:933 JLINK_ReadMem (0x08010BAC, 0x003C Bytes, ...) -- CPU_ReadMem(64 bytes @ 0x08010BC0) -- Updating C cache (64 bytes @ 0x08010BC0) -- Read from C cache (60 bytes @ 0x08010BAC) - Data: 11 46 4B 48 F1 F7 BF FF 05 22 06 21 48 48 F1 F7 ...  returns 0x00 (0001ms, 0442ms total)
T0294 067:392 JLINK_Step() -- Read from C cache (2 bytes @ 0x08010BAA) -- CPU_ReadMem(4 bytes @ 0xE0001004) -- Simulated  returns 0x00 (0000ms, 0442ms total)
T0294 067:392 JLINK_ReadReg(R15 (PC))  returns 0x08010BAC (0000ms, 0442ms total)
T0294 067:392 JLINK_ReadReg(XPSR)  returns 0x01000000 (0000ms, 0442ms total)
T0294 067:392 JLINK_Step() -- Read from C cache (2 bytes @ 0x08010BAC) -- Simulated  returns 0x00 (0000ms, 0442ms total)
T0294 067:392 JLINK_ReadReg(R15 (PC))  returns 0x08010BAE (0000ms, 0442ms total)
T0294 067:392 JLINK_ReadReg(XPSR)  returns 0x01000000 (0000ms, 0442ms total)
T0294 067:392 JLINK_Step() -- Read from C cache (2 bytes @ 0x08010BAE) -- CPU_ReadMem(64 bytes @ 0x08010CC0) -- Updating C cache (64 bytes @ 0x08010CC0) -- Read from C cache (4 bytes @ 0x08010CDC) -- Simulated  returns 0x00 (0001ms, 0443ms total)
T0294 067:393 JLINK_ReadReg(R15 (PC))  returns 0x08010BB0 (0000ms, 0443ms total)
T0294 067:393 JLINK_ReadReg(XPSR)  returns 0x01000000 (0000ms, 0443ms total)
T0294 067:393 JLINK_SetBPEx(Addr = 0x08010BB4, Type = 0xFFFFFFF2)  returns 0x00000012 (0000ms, 0443ms total)
T0294 067:393 JLINK_SetBPEx(Addr = 0x0800028E, Type = 0xFFFFFFF2)  returns 0x00000013 (0000ms, 0443ms total)
T0294 067:393 JLINK_SetBPEx(Addr = 0x0800FAB8, Type = 0xFFFFFFF2)  returns 0x00000014 (0000ms, 0443ms total)
T0294 067:393 JLINK_SetBPEx(Addr = 0x08010D30, Type = 0xFFFFFFF2)  returns 0x00000015 (0000ms, 0443ms total)
T0294 067:393 JLINK_SetBPEx(Addr = 0x08010E60, Type = 0xFFFFFFF2)  returns 0x00000016 (0000ms, 0443ms total)
T0294 067:393 JLINK_SetBPEx(Addr = 0x08010BA0, Type = 0xFFFFFFF2)  returns 0x00000017 (0000ms, 0443ms total)
T0294 067:393 JLINK_Go() -- CPU_ReadMem(4 bytes @ 0xE0001000) -- CPU_WriteMem(4 bytes @ 0xE0002008) -- CPU_WriteMem(4 bytes @ 0xE0001004) (0005ms, 0448ms total)
T0294 067:500 JLINK_IsHalted()  returns TRUE (0001ms, 0449ms total)
T0294 067:501 JLINK_Halt()  returns 0x00 (0000ms, 0448ms total)
T0294 067:501 JLINK_IsHalted()  returns TRUE (0000ms, 0448ms total)
T0294 067:501 JLINK_IsHalted()  returns TRUE (0000ms, 0448ms total)
T0294 067:501 JLINK_IsHalted()  returns TRUE (0000ms, 0448ms total)
T0294 067:501 JLINK_ReadReg(R15 (PC))  returns 0x08010BB4 (0000ms, 0448ms total)
T0294 067:501 JLINK_ReadReg(XPSR)  returns 0x61000000 (0000ms, 0448ms total)
T0294 067:501 JLINK_ClrBPEx(BPHandle = 0x00000012)  returns 0x00 (0000ms, 0448ms total)
T0294 067:501 JLINK_ClrBPEx(BPHandle = 0x00000013)  returns 0x00 (0000ms, 0448ms total)
T0294 067:501 JLINK_ClrBPEx(BPHandle = 0x00000014)  returns 0x00 (0000ms, 0448ms total)
T0294 067:501 JLINK_ClrBPEx(BPHandle = 0x00000015)  returns 0x00 (0000ms, 0448ms total)
T0294 067:501 JLINK_ClrBPEx(BPHandle = 0x00000016)  returns 0x00 (0000ms, 0448ms total)
T0294 067:501 JLINK_ClrBPEx(BPHandle = 0x00000017)  returns 0x00 (0000ms, 0448ms total)
T0294 067:501 JLINK_ReadMemU32(0xE000ED30, 0x0001 Items, ...) -- CPU_ReadMem(4 bytes @ 0xE000ED30) - Data: 02 00 00 00  returns 0x01 (0001ms, 0449ms total)
